time	V(n003)	V(n008)
0.000000000000000e+000	2.319355e+000	9.787746e-001
1.098177944414136e-009	2.337018e+000	9.800608e-001
3.294533833242408e-009	2.372656e+000	9.825823e-001
7.687245610898952e-009	2.445041e+000	9.874390e-001
1.285169488191018e-008	2.532315e+000	9.928426e-001
2.173386650164422e-008	2.687510e+000	1.001585e+000
3.065291760695477e-008	2.850187e+000	1.009874e+000
4.312710509893347e-008	3.090517e+000	1.020892e+000
5.929642803159663e-008	3.424521e+000	1.034658e+000
8.377414051352616e-008	3.980693e+000	1.054893e+000
1.236277653964002e-007	5.018541e+000	1.086151e+000
2.033350151621483e-007	7.456637e+000	1.138793e+000
3.245366141900463e-007	1.167317e+001	1.183461e+000
4.728683724204708e-007	1.698888e+001	1.166135e+000
6.278316845298448e-007	2.177705e+001	1.057162e+000
7.895751511569071e-007	2.529040e+001	8.634622e-001
8.673213046442307e-007	2.619743e+001	7.429776e-001
9.026506536009837e-007	2.633328e+001	6.786500e-001
9.178662703050733e-007	2.633076e+001	6.475972e-001
9.257752911634443e-007	2.631408e+001	6.299388e-001
9.304816238793479e-007	2.629918e+001	6.186707e-001
9.355466443483618e-007	2.627974e+001	6.058905e-001
9.384743510677807e-007	2.626701e+001	5.981598e-001
9.406147629190120e-007	2.625676e+001	5.922588e-001
9.430067391576202e-007	2.624455e+001	5.854673e-001
9.445761302434574e-007	2.623612e+001	5.808895e-001
9.466727392722085e-007	2.622425e+001	5.745832e-001
9.482729066111195e-007	2.621472e+001	5.696076e-001
9.503126720752930e-007	2.620198e+001	5.630596e-001
9.523422179608110e-007	2.618876e+001	5.563553e-001
9.543425549228546e-007	2.617511e+001	5.495206e-001
9.564130344953681e-007	2.616031e+001	5.421752e-001
9.582762763825359e-007	2.614638e+001	5.353135e-001
9.603859775844659e-007	2.612997e+001	5.272855e-001
9.622117325379376e-007	2.611520e+001	5.200992e-001
9.644968199350179e-007	2.609594e+001	5.107630e-001
9.664207086430843e-007	2.607902e+001	5.025842e-001
9.688700988753907e-007	2.605658e+001	4.917653e-001
9.711642359640227e-007	2.603471e+001	4.812419e-001
9.737841312855433e-007	2.600865e+001	4.687119e-001
9.762455296276340e-007	2.598308e+001	4.564221e-001
9.790115647334563e-007	2.595314e+001	4.420418e-001
9.815339935756451e-007	2.592473e+001	4.283933e-001
9.844628012269097e-007	2.589036e+001	4.118727e-001
9.871665705256383e-007	2.585733e+001	3.959853e-001
9.901870353309916e-007	2.581893e+001	3.775062e-001
9.934647958835530e-007	2.577556e+001	3.566138e-001
9.967951017687826e-007	2.572954e+001	3.344230e-001
1.000790789091460e-006	2.567193e+001	3.066165e-001
1.008422866894537e-006	2.555417e+001	2.496741e-001
1.014487156413002e-006	2.545363e+001	2.009619e-001
1.019759583845148e-006	2.536172e+001	1.563682e-001
1.025121325548550e-006	2.526307e+001	1.084332e-001
1.031917813639621e-006	2.513069e+001	4.403079e-002
1.041073917948387e-006	2.494132e+001	-4.820101e-002
1.049879497935780e-006	2.474749e+001	-1.426516e-001
1.058949845783586e-006	2.453504e+001	-2.461312e-001
1.068760990742546e-006	2.429113e+001	-3.646528e-001
1.080104111428337e-006	2.399335e+001	-5.071049e-001
1.093115969800357e-006	2.364174e+001	-6.648696e-001
1.101526441657508e-006	2.341900e+001	-7.482982e-001
1.107300934128502e-006	2.327426e+001	-7.880022e-001
1.111445355753832e-006	2.317482e+001	-8.080143e-001
1.115335194156603e-006	2.308296e+001	-8.230296e-001
1.119456851963324e-006	2.298598e+001	-8.365570e-001
1.122543103162371e-006	2.291348e+001	-8.452488e-001
1.125911550110825e-006	2.283432e+001	-8.534588e-001
1.129860077119654e-006	2.274117e+001	-8.620752e-001
1.132882111180150e-006	2.266947e+001	-8.680525e-001
1.136146644379471e-006	2.259158e+001	-8.739159e-001
1.139495576282096e-006	2.251113e+001	-8.794993e-001
1.142792906076717e-006	2.243125e+001	-8.846763e-001
1.145909185495259e-006	2.235523e+001	-8.892764e-001
1.148657183997620e-006	2.228769e+001	-8.931325e-001
1.151711900990865e-006	2.221194e+001	-8.972802e-001
1.155200781869509e-006	2.212470e+001	-9.018373e-001
1.158660136949680e-006	2.203749e+001	-9.061761e-001
1.161799671346026e-006	2.195759e+001	-9.100266e-001
1.164827215051345e-006	2.187987e+001	-9.136538e-001
1.168014885036955e-006	2.179738e+001	-9.173537e-001
1.171656634442464e-006	2.170231e+001	-9.215124e-001
1.174716981851981e-006	2.162169e+001	-9.249600e-001
1.178055111638460e-006	2.153303e+001	-9.286233e-001
1.181682665944012e-006	2.143584e+001	-9.325420e-001
1.185254201816616e-006	2.133927e+001	-9.363650e-001
1.188724657503332e-006	2.124466e+001	-9.399976e-001
1.192129347075271e-006	2.115108e+001	-9.435057e-001
1.195675600789564e-006	2.105273e+001	-9.471354e-001
1.199415364267625e-006	2.094822e+001	-9.508879e-001
1.202753746331470e-006	2.085418e+001	-9.541827e-001
1.206391707406218e-006	2.075080e+001	-9.577472e-001
1.210675239230602e-006	2.062814e+001	-9.618656e-001
1.214326317163644e-006	2.052274e+001	-9.653143e-001
1.218244969028448e-006	2.040861e+001	-9.689773e-001
1.223063506156780e-006	2.026715e+001	-9.733901e-001
1.227153437866058e-006	2.014608e+001	-9.770672e-001
1.231479900852539e-006	2.001689e+001	-9.809040e-001
1.236160374496614e-006	1.987602e+001	-9.849579e-001
1.240909131953322e-006	1.973191e+001	-9.889928e-001
1.245670135204685e-006	1.958625e+001	-9.929675e-001
1.250145533128466e-006	1.944817e+001	-9.966009e-001
1.257139792428669e-006	1.923048e+001	-1.002146e+000
1.262825034792359e-006	1.905198e+001	-1.006529e+000
1.268634770460603e-006	1.886797e+001	-1.010866e+000
1.274402094148669e-006	1.868374e+001	-1.015049e+000
1.281513353792313e-006	1.845466e+001	-1.020018e+000
1.288832430734049e-006	1.821687e+001	-1.024942e+000
1.296087722646444e-006	1.797920e+001	-1.029622e+000
1.302685916661911e-006	1.776141e+001	-1.033691e+000
1.309635884180066e-006	1.753029e+001	-1.037785e+000
1.318025078089063e-006	1.724923e+001	-1.042450e+000
1.328423425435432e-006	1.689823e+001	-1.047863e+000
1.338524190732521e-006	1.655481e+001	-1.052732e+000
1.347872570892778e-006	1.623491e+001	-1.056869e+000
1.357101609460870e-006	1.591738e+001	-1.060604e+000
1.365973227897277e-006	1.561081e+001	-1.063855e+000
1.375789311922754e-006	1.527027e+001	-1.067048e+000
1.388928386254762e-006	1.481297e+001	-1.070664e+000
1.406081996068592e-006	1.421471e+001	-1.074392e+000
1.422978156886273e-006	1.362529e+001	-1.076966e+000
1.439759434736232e-006	1.304107e+001	-1.078387e+000
1.456104038368572e-006	1.247453e+001	-1.078709e+000
1.471126834004521e-006	1.195713e+001	-1.078078e+000
1.485579329132264e-006	1.146336e+001	-1.076638e+000
1.499016114545754e-006	1.100865e+001	-1.074576e+000
1.512391225685916e-006	1.056099e+001	-1.071836e+000
1.526034299398349e-006	1.011034e+001	-1.068334e+000
1.541855947501114e-006	9.596872e+000	-1.063361e+000
1.563962774314698e-006	8.898882e+000	-1.054801e+000
1.598004828670674e-006	7.865892e+000	-1.038720e+000
1.631710813906201e-006	6.898386e+000	-1.019663e+000
1.667076322087874e-006	5.951748e+000	-9.964806e-001
1.698191836957408e-006	5.180849e+000	-9.737641e-001
1.725036428753407e-006	4.566381e+000	-9.526082e-001
1.745582360573872e-006	4.129231e+000	-9.355672e-001
1.761036007612987e-006	3.820328e+000	-9.223155e-001
1.771752068814581e-006	3.616446e+000	-9.129238e-001
1.779472176530877e-006	3.475006e+000	-9.060640e-001
1.785289358346986e-006	3.371576e+000	-9.008449e-001
1.791468220001952e-006	3.264578e+000	-8.952519e-001
1.797733270286067e-006	3.158622e+000	-8.895506e-001
1.802356765966129e-006	3.082111e+000	-8.853139e-001
1.805704655168106e-006	3.027765e+000	-8.822304e-001
1.809244494430096e-006	2.971213e+000	-8.789693e-001
1.812588636362217e-006	2.918545e+000	-8.758688e-001
1.814924418978153e-006	2.882253e+000	-8.736930e-001
1.817546939363035e-006	2.841974e+000	-8.712589e-001
1.819988481272655e-006	2.804901e+000	-8.689855e-001
1.822417522969605e-006	2.768454e+000	-8.667040e-001
1.824619769108526e-006	2.735736e+000	-8.646389e-001
1.826334492374682e-006	2.710496e+000	-8.630390e-001
1.828467479959850e-006	2.679398e+000	-8.610368e-001
1.830030287832546e-006	2.656834e+000	-8.595567e-001
1.832099109332075e-006	2.627217e+000	-8.576009e-001
1.833666283319879e-006	2.604957e+000	-8.561295e-001
1.835689193461360e-006	2.576488e+000	-8.542236e-001
1.837421002851697e-006	2.552360e+000	-8.525758e-001
1.839445732659123e-006	2.524413e+000	-8.506484e-001
1.841304967040158e-006	2.498972e+000	-8.488904e-001
1.843352914126378e-006	2.471236e+000	-8.469496e-001
1.845512785893927e-006	2.442308e+000	-8.448840e-001
1.847495333960614e-006	2.416024e+000	-8.429872e-001
1.849351518919823e-006	2.391650e+000	-8.412220e-001
1.851458747020168e-006	2.364265e+000	-8.392130e-001
1.853351557581234e-006	2.339942e+000	-8.373925e-001
1.855417437374857e-006	2.313669e+000	-8.354050e-001
1.857251138468602e-006	2.290571e+000	-8.336514e-001
1.859300825614307e-006	2.265024e+000	-8.316869e-001
1.861174850310149e-006	2.241935e+000	-8.298753e-001
1.863213386552737e-006	2.217083e+000	-8.279039e-001
1.865069025570182e-006	2.194681e+000	-8.261198e-001
1.867106512332822e-006	2.170353e+000	-8.241571e-001
1.869025394302809e-006	2.147713e+000	-8.222933e-001
1.871056626103623e-006	2.124011e+000	-8.203193e-001
1.872941198056977e-006	2.102245e+000	-8.184980e-001
1.874976781817556e-006	2.079007e+000	-8.165269e-001
1.877081744205977e-006	2.055274e+000	-8.144726e-001
1.879013203490154e-006	2.033745e+000	-8.125870e-001
1.880818111331395e-006	2.013839e+000	-8.108342e-001
1.882859269417697e-006	1.991592e+000	-8.088483e-001
1.884933789081389e-006	1.969266e+000	-8.068143e-001
1.886840326602995e-006	1.948987e+000	-8.049439e-001
1.888647576282765e-006	1.929974e+000	-8.031803e-001
1.890669405646417e-006	1.908956e+000	-8.012039e-001
1.892680343743014e-006	1.888323e+000	-7.992235e-001
1.894620389467777e-006	1.868659e+000	-7.973112e-001
1.896498945812980e-006	1.849834e+000	-7.954688e-001
1.898504498984432e-006	1.829986e+000	-7.934990e-001
1.900474382119516e-006	1.810753e+000	-7.915503e-001
1.902454181742369e-006	1.791672e+000	-7.895897e-001
1.904485680718354e-006	1.772326e+000	-7.875873e-001
1.906413064207274e-006	1.754213e+000	-7.856846e-001
1.908436603834801e-006	1.735463e+000	-7.836730e-001
1.910359643086945e-006	1.717875e+000	-7.817595e-001
1.912217191046145e-006	1.701093e+000	-7.799196e-001
1.914191254673986e-006	1.683490e+000	-7.779619e-001
1.916081400408359e-006	1.666876e+000	-7.760744e-001
1.918066480970093e-006	1.649665e+000	-7.740891e-001
1.919956004601403e-006	1.633482e+000	-7.722078e-001
1.921750653492704e-006	1.618314e+000	-7.704200e-001
1.923570576156664e-006	1.603147e+000	-7.685944e-001
1.925266500696354e-006	1.589199e+000	-7.668885e-001
1.927028805432524e-006	1.574869e+000	-7.651234e-001
1.928487386868710e-006	1.563144e+000	-7.636657e-001
1.930143942757701e-006	1.549990e+000	-7.620016e-001
1.931404020289601e-006	1.540110e+000	-7.607279e-001
1.933134734816155e-006	1.526692e+000	-7.589787e-001
1.934555835386709e-006	1.515786e+000	-7.575498e-001
1.936111804361901e-006	1.503985e+000	-7.559861e-001
1.937708538228555e-006	1.492029e+000	-7.543713e-001
1.939083673799941e-006	1.481865e+000	-7.529733e-001
1.940700938587309e-006	1.470041e+000	-7.513317e-001
1.941882619514029e-006	1.461490e+000	-7.501379e-001
1.943481239250616e-006	1.450059e+000	-7.485221e-001
1.945092032121232e-006	1.438693e+000	-7.468832e-001
1.946549630076760e-006	1.428547e+000	-7.453933e-001
1.948134712565636e-006	1.417638e+000	-7.437766e-001
1.949306246223914e-006	1.409665e+000	-7.425865e-001
1.950997511438596e-006	1.398307e+000	-7.408655e-001
1.952759493613343e-006	1.386647e+000	-7.390604e-001
1.954401430772496e-006	1.375943e+000	-7.373731e-001
1.956042555838200e-006	1.365379e+000	-7.356918e-001
1.957327645560336e-006	1.357212e+000	-7.343785e-001
1.958901400301444e-006	1.347341e+000	-7.327643e-001
1.960035616595246e-006	1.340324e+000	-7.315933e-001
1.961579121020213e-006	1.330905e+000	-7.299962e-001
1.963144308017584e-006	1.321462e+000	-7.283825e-001
1.964452877159517e-006	1.313667e+000	-7.270365e-001
1.965951920802206e-006	1.304856e+000	-7.254895e-001
1.967066038909004e-006	1.298401e+000	-7.243322e-001
1.968511895000108e-006	1.290138e+000	-7.228261e-001
1.970002660112158e-006	1.281715e+000	-7.212777e-001
1.971195162622091e-006	1.275062e+000	-7.200427e-001
1.972701482083616e-006	1.266774e+000	-7.184792e-001
1.974022636106604e-006	1.259613e+000	-7.170990e-001
1.975400004579353e-006	1.252259e+000	-7.156546e-001
1.976854206629797e-006	1.244591e+000	-7.141323e-001
1.977926374019390e-006	1.239008e+000	-7.130135e-001
1.979505794485331e-006	1.230906e+000	-7.113631e-001
1.981042404397559e-006	1.223149e+000	-7.097476e-001
1.982396145808196e-006	1.216430e+000	-7.083179e-001
1.983858767422297e-006	1.209271e+000	-7.067743e-001
1.984903721670428e-006	1.204221e+000	-7.056751e-001
1.986270192228662e-006	1.197711e+000	-7.042372e-001
1.987668360688144e-006	1.191152e+000	-7.027580e-001
1.988828490107758e-006	1.185800e+000	-7.015238e-001
1.990281482074086e-006	1.179198e+000	-6.999764e-001
1.991588202361616e-006	1.173340e+000	-6.985888e-001
1.992804855101976e-006	1.167965e+000	-6.972984e-001
1.994145036241651e-006	1.162135e+000	-6.958720e-001
1.995157129501546e-006	1.157804e+000	-6.947883e-001
1.996418512194287e-006	1.152492e+000	-6.934327e-001
1.997755089418185e-006	1.146938e+000	-6.919981e-001
1.998737934352096e-006	1.142908e+000	-6.909461e-001
1.999992326546379e-006	1.137842e+000	-6.896031e-001
2.001296495659360e-006	1.132659e+000	-6.882005e-001
2.002311755979619e-006	1.128697e+000	-6.871021e-001
2.003780498492647e-006	1.123067e+000	-6.855093e-001
2.005179516501726e-006	1.117785e+000	-6.839949e-001
2.006273571754369e-006	1.113722e+000	-6.828125e-001
2.007619624943419e-006	1.108813e+000	-6.813541e-001
2.008846071294146e-006	1.104425e+000	-6.800176e-001
2.010014106830493e-006	1.100327e+000	-6.787388e-001
2.011300067408101e-006	1.095888e+000	-6.773301e-001
2.012242885304771e-006	1.092680e+000	-6.762997e-001
2.013279262472884e-006	1.089208e+000	-6.751682e-001
2.014472041702436e-006	1.085278e+000	-6.738622e-001
2.015425723631004e-006	1.082192e+000	-6.728122e-001
2.016449261489639e-006	1.078943e+000	-6.716799e-001
2.017665815517294e-006	1.075146e+000	-6.703324e-001
2.018762874488739e-006	1.071775e+000	-6.691192e-001
2.019747518199055e-006	1.068800e+000	-6.680318e-001
2.020951941860555e-006	1.065231e+000	-6.666986e-001
2.022240094601280e-006	1.061496e+000	-6.652651e-001
2.023323997159265e-006	1.058424e+000	-6.640526e-001
2.024561348772797e-006	1.054991e+000	-6.626658e-001
2.025708102783991e-006	1.051867e+000	-6.613823e-001
2.026691184740109e-006	1.049238e+000	-6.602829e-001
2.027855481527563e-006	1.046191e+000	-6.589777e-001
2.029009535102488e-006	1.043240e+000	-6.576771e-001
2.030021596623882e-006	1.040714e+000	-6.565304e-001
2.031202232282564e-006	1.037834e+000	-6.551899e-001
2.032405437845525e-006	1.034958e+000	-6.538250e-001
2.033353912685859e-006	1.032738e+000	-6.527500e-001
2.034497731204926e-006	1.030126e+000	-6.514504e-001
2.035799481450717e-006	1.027231e+000	-6.499636e-001
2.036818595337747e-006	1.025029e+000	-6.487931e-001
2.037980782108179e-006	1.022588e+000	-6.474549e-001
2.039350526134715e-006	1.019779e+000	-6.458783e-001
2.040324757538597e-006	1.017833e+000	-6.447572e-001
2.041425018400184e-006	1.015698e+000	-6.434876e-001
2.042693708886184e-006	1.013311e+000	-6.420157e-001
2.043687921164661e-006	1.011500e+000	-6.408560e-001
2.044779852675149e-006	1.009573e+000	-6.395786e-001
2.045969196614456e-006	1.007528e+000	-6.381875e-001
2.046825597817881e-006	1.006095e+000	-6.371862e-001
2.047874883441547e-006	1.004391e+000	-6.359570e-001
2.049651072040526e-006	1.001632e+000	-6.338626e-001
2.050533464137416e-006	1.000329e+000	-6.328143e-001
2.051506727242941e-006	9.989318e-001	-6.316561e-001
2.052265125146446e-006	9.978704e-001	-6.307536e-001
2.052943075592228e-006	9.969451e-001	-6.299474e-001
2.053769019298019e-006	9.958472e-001	-6.289645e-001
2.054652276671509e-006	9.947078e-001	-6.279106e-001
2.056117909647603e-006	9.929107e-001	-6.261502e-001
2.056969213903859e-006	9.919227e-001	-6.251208e-001
2.057871259907723e-006	9.909115e-001	-6.240278e-001
2.059305019348756e-006	9.893753e-001	-6.222899e-001
2.060007528090907e-006	9.886581e-001	-6.214381e-001
2.060808281936083e-006	9.878721e-001	-6.204649e-001
2.061886783782940e-006	9.868611e-001	-6.191484e-001
2.062648826035157e-006	9.861822e-001	-6.182132e-001
2.063402164818873e-006	9.855453e-001	-6.172843e-001
2.064234730522752e-006	9.848746e-001	-6.162550e-001
2.065132819528692e-006	9.841822e-001	-6.151438e-001
2.065735201207952e-006	9.837366e-001	-6.143984e-001
2.066322081162308e-006	9.833204e-001	-6.136718e-001
2.067034967755815e-006	9.828373e-001	-6.127878e-001
2.067814107210159e-006	9.823353e-001	-6.118189e-001
2.068887583275142e-006	9.817001e-001	-6.104754e-001
2.069561593161240e-006	9.813353e-001	-6.096269e-001
2.070273421424240e-006	9.809755e-001	-6.087281e-001
2.071199227245135e-006	9.805374e-001	-6.075571e-001
2.072099104917513e-006	9.801481e-001	-6.064180e-001
2.072604050461224e-006	9.799465e-001	-6.057785e-001
2.073175535816790e-006	9.797323e-001	-6.050537e-001
2.073737060480363e-006	9.795370e-001	-6.043401e-001
2.074284668796694e-006	9.793620e-001	-6.036420e-001
2.074751224542121e-006	9.792262e-001	-6.030451e-001
2.075249797370976e-006	9.790956e-001	-6.024048e-001
2.075815006052917e-006	9.789637e-001	-6.016764e-001
2.076389025686826e-006	9.788471e-001	-6.009344e-001
2.077087014752677e-006	9.787243e-001	-6.000302e-001
2.077483783564926e-006	9.786636e-001	-5.995157e-001
2.077853705376859e-006	9.786143e-001	-5.990357e-001
2.078175484972883e-006	9.785759e-001	-5.986181e-001
2.078440763535888e-006	9.785476e-001	-5.982738e-001
2.078661803728982e-006	9.785264e-001	-5.979868e-001
2.078881598227556e-006	9.785080e-001	-5.977013e-001
2.079232359366440e-006	9.784835e-001	-5.972452e-001
2.079661286496365e-006	9.784623e-001	-5.966865e-001
2.080325191566174e-006	9.784449e-001	-5.958198e-001
2.080664118497833e-006	9.784435e-001	-5.953761e-001
2.080898605021780e-006	9.784473e-001	-5.950683e-001
2.081104088388214e-006	9.784533e-001	-5.947981e-001
2.081268242453555e-006	9.784599e-001	-5.945820e-001
2.081457316806951e-006	9.784696e-001	-5.943326e-001
2.081647695377498e-006	9.784814e-001	-5.940811e-001
2.081934830051174e-006	9.785032e-001	-5.937012e-001
2.082230516332190e-006	9.785301e-001	-5.933093e-001
2.082601864284578e-006	9.785703e-001	-5.928161e-001
2.082997188502384e-006	9.786201e-001	-5.922903e-001
2.083389686702991e-006	9.786769e-001	-5.917677e-001
2.083845998285261e-006	9.787515e-001	-5.911596e-001
2.084300689552537e-006	9.788349e-001	-5.905532e-001
2.084815660528122e-006	9.789402e-001	-5.898658e-001
2.085355008372286e-006	9.790636e-001	-5.891449e-001
2.085989410018085e-006	9.792277e-001	-5.882948e-001
2.086774622749726e-006	9.794549e-001	-5.872390e-001
2.087200588637289e-006	9.795914e-001	-5.866640e-001
2.087655243281084e-006	9.797508e-001	-5.860477e-001
2.088148073203788e-006	9.799368e-001	-5.853771e-001
2.088717356039938e-006	9.801676e-001	-5.845998e-001
2.089272918785051e-006	9.804099e-001	-5.838388e-001
2.090105435000739e-006	9.807985e-001	-5.826955e-001
2.090737373446755e-006	9.811125e-001	-5.818262e-001
2.091388854735810e-006	9.814570e-001	-5.809281e-001
2.092132970872573e-006	9.818753e-001	-5.798995e-001
2.092939560865287e-006	9.823589e-001	-5.787800e-001
2.093687468559397e-006	9.828362e-001	-5.777367e-001
2.094268517074255e-006	9.832293e-001	-5.769216e-001
2.094894501692562e-006	9.836761e-001	-5.760389e-001
2.095634697746318e-006	9.842315e-001	-5.749905e-001
2.096505664336834e-006	9.849161e-001	-5.737525e-001
2.097185129310702e-006	9.854738e-001	-5.727838e-001
2.097909643346274e-006	9.860948e-001	-5.717480e-001
2.098806121116764e-006	9.868985e-001	-5.704610e-001
2.099750037464626e-006	9.877850e-001	-5.690987e-001
2.100459209865985e-006	9.884823e-001	-5.680686e-001
2.101130780959859e-006	9.891734e-001	-5.670865e-001
2.102085377944651e-006	9.901968e-001	-5.656820e-001
2.102948358152779e-006	9.911582e-001	-5.644060e-001
2.103802006506172e-006	9.921451e-001	-5.631383e-001
2.104646630116808e-006	9.931574e-001	-5.618785e-001
2.105680329926585e-006	9.944466e-001	-5.603274e-001
